T0208 000:022.173   SEGGER J-Link V7.22b Log File
T0208 000:022.435   DLL Compiled: Jun 17 2021 17:22:49
T0208 000:022.462   Logging started @ 2021-12-15 10:11
T0208 000:022.470 - 22.476ms
T0208 000:022.492 JLINK_SetWarnOutHandler(...)
T0208 000:022.504 - 0.016ms
T0208 000:022.515 JLINK_OpenEx(...)
T0208 000:024.639   Firmware: J-Link OpenSDA 2 compiled Nov 16 2017 12:37:19
T0208 000:025.172   Firmware: J-Link OpenSDA 2 compiled Nov 16 2017 12:37:19
T0208 000:042.364   Hardware: V1.00
T0208 000:042.386   S/N: 621000000
T0208 000:042.403   OEM: SEGGER
T0208 000:042.413   Feature(s): None
T0208 000:043.644   TELNET listener socket opened on port 19021
T0208 000:044.063   WEBSRV Starting webserver
T0208 000:044.193   WEBSRV Webserver running on local port 19080
T0208 000:044.206 - 21.694ms returns "O.K."
T0208 000:044.225 JLINK_GetEmuCaps()
T0208 000:044.232 - 0.010ms returns 0x986A5A33
T0208 000:044.245 JLINK_TIF_GetAvailable(...)
T0208 000:044.401 - 0.177ms
T0208 000:044.432 JLINK_SetErrorOutHandler(...)
T0208 000:044.439 - 0.010ms
T0208 000:044.468 JLINK_ExecCommand("ProjectFile = "C:\Users\YX\Desktop\gitResp\AN5331SW\boards\frdmk64f\driver_examples\offline_programmer\mdk\JLinkSettings.ini"", ...). 
T0208 000:059.154   Ref file found at: C:\Keil_v5\ARM\Segger\JLinkDevices.ref
T0208 000:059.567   XML referenced by ref file: C:\Program Files (x86)\SEGGER\JLink\JLinkDevices.xml
T0208 000:061.623   C:\Program Files (x86)\SEGGER\JLink\JLinkDevices.xml evaluated successfully.
T0208 000:359.635 - 315.180ms returns 0x00
T0208 000:363.680 JLINK_ExecCommand("Device = MK64FN1M0xxx12", ...). 
T0208 000:367.862   Device "MK64FN1M0XXX12" selected.
T0208 000:368.503 - 4.812ms returns 0x00
T0208 000:368.529 JLINK_GetHardwareVersion()
T0208 000:368.554 - 0.029ms returns 10000
T0208 000:368.565 JLINK_GetDLLVersion()
T0208 000:368.572 - 0.019ms returns 72202
T0208 000:368.594 JLINK_GetOEMString(...)
T0208 000:368.603 JLINK_GetFirmwareString(...)
T0208 000:368.616 - 0.016ms
T0208 000:378.971 JLINK_GetDLLVersion()
T0208 000:378.989 - 0.021ms returns 72202
T0208 000:378.998 JLINK_GetCompileDateTime()
T0208 000:379.005 - 0.010ms
T0208 000:383.161 JLINK_GetFirmwareString(...)
T0208 000:383.177 - 0.019ms
T0208 000:387.261 JLINK_GetHardwareVersion()
T0208 000:387.280 - 0.021ms returns 10000
T0208 000:393.971 JLINK_GetSN()
T0208 000:393.993 - 0.026ms returns 621000000
T0208 000:397.233 JLINK_GetOEMString(...)
T0208 000:400.198 JLINK_TIF_Select(JLINKARM_TIF_SWD)
T0208 000:400.999 - 0.808ms returns 0x00
T0208 000:401.014 JLINK_HasError()
T0208 000:401.038 JLINK_SetSpeed(5000)
T0208 000:401.281 - 0.252ms
T0208 000:401.299 JLINK_GetId()
T0208 000:406.907   InitTarget()
T0208 000:469.576   Found SW-DP with ID 0x2BA01477
T0208 000:473.778   Old FW that does not support reading DPIDR via DAP jobs
T0208 000:480.826   DPv0 detected
T0208 000:484.799   Scanning AP map to find all available APs
T0208 000:493.273   AP[2]: Stopped AP scan as end of AP map has been reached
T0208 000:496.432   AP[0]: AHB-AP (IDR: 0x24770011)
T0208 000:501.001   AP[1]: JTAG-AP (IDR: 0x001C0000)
T0208 000:504.101   Iterating through AP map to find AHB-AP to use
T0208 000:512.272   AP[0]: Core found
T0208 000:515.329   AP[0]: AHB-AP ROM base: 0xE00FF000
T0208 000:521.126   CPUID register: 0x410FC241. Implementer code: 0x41 (ARM)
T0208 000:525.643   Found Cortex-M4 r0p1, Little endian.
T0208 000:627.189   -- Max. mem block: 0x000019F0
T0208 000:627.434   CPU_ReadMem(4 bytes @ 0xE000EDF0)
T0208 000:628.204   CPU_WriteMem(4 bytes @ 0xE000EDF0)
T0208 000:628.935   CPU_ReadMem(4 bytes @ 0xE0002000)
T0208 000:632.779   FPUnit: 6 code (BP) slots and 2 literal slots
T0208 000:632.802   CPU_ReadMem(4 bytes @ 0xE000EDFC)
T0208 000:633.504   CPU_WriteMem(4 bytes @ 0xE000EDFC)
T0208 000:634.230   CPU_ReadMem(4 bytes @ 0xE0001000)
T0208 000:634.939   CPU_WriteMem(4 bytes @ 0xE0001000)
T0208 000:635.518   CPU_ReadMem(4 bytes @ 0xE000ED88)
T0208 000:636.174   CPU_WriteMem(4 bytes @ 0xE000ED88)
T0208 000:636.861   CPU_ReadMem(4 bytes @ 0xE000ED88)
T0208 000:637.373   CPU_WriteMem(4 bytes @ 0xE000ED88)
T0208 000:643.109   CoreSight components:
T0208 000:646.699   ROMTbl[0] @ E00FF000
T0208 000:646.725   CPU_ReadMem(64 bytes @ 0xE00FF000)
T0208 000:648.193   CPU_ReadMem(32 bytes @ 0xE000EFE0)
T0208 000:654.580   ROMTbl[0][0]: E000E000, CID: B105E00D, PID: 000BB00C SCS-M7
T0208 000:654.623   CPU_ReadMem(32 bytes @ 0xE0001FE0)
T0208 000:660.619   ROMTbl[0][1]: E0001000, CID: B105E00D, PID: 003BB002 DWT
T0208 000:660.652   CPU_ReadMem(32 bytes @ 0xE0002FE0)
T0208 000:665.016   ROMTbl[0][2]: E0002000, CID: B105E00D, PID: 002BB003 FPB
T0208 000:665.048   CPU_ReadMem(32 bytes @ 0xE0000FE0)
T0208 000:668.993   ROMTbl[0][3]: E0000000, CID: B105E00D, PID: 003BB001 ITM
T0208 000:669.019   CPU_ReadMem(32 bytes @ 0xE0040FE0)
T0208 000:674.987   ROMTbl[0][4]: E0040000, CID: B105900D, PID: 000BB9A1 TPIU
T0208 000:675.018   CPU_ReadMem(32 bytes @ 0xE0041FE0)
T0208 000:679.323   ROMTbl[0][5]: E0041000, CID: B105900D, PID: 000BB925 ETM
T0208 000:679.398   CPU_ReadMem(32 bytes @ 0xE0042FE0)
T0208 000:684.064   ROMTbl[0][6]: E0042000, CID: B105900D, PID: 003BB907 ETB
T0208 000:684.106   CPU_ReadMem(32 bytes @ 0xE0043FE0)
T0208 000:689.817   ROMTbl[0][7]: E0043000, CID: B105900D, PID: 001BB908 CSTF
T0208 000:690.544 - 289.260ms returns 0x2BA01477
T0208 000:690.572 JLINK_GetDLLVersion()
T0208 000:690.580 - 0.010ms returns 72202
T0208 000:690.591 JLINK_CORE_GetFound()
T0208 000:690.598 - 0.010ms returns 0xE0000FF
T0208 000:690.608 JLINK_GetDebugInfo(0x100 = JLINKARM_ROM_TABLE_ADDR_INDEX)
T0208 000:690.633   Value=0xE00FF000
T0208 000:690.659 - 0.055ms returns 0
T0208 000:695.579 JLINK_GetDebugInfo(0x100 = JLINKARM_ROM_TABLE_ADDR_INDEX)
T0208 000:695.603   Value=0xE00FF000
T0208 000:695.613 - 0.037ms returns 0
T0208 000:695.622 JLINK_GetDebugInfo(0x101 = JLINKARM_DEBUG_INFO_ETM_ADDR_INDEX)
T0208 000:695.629   Value=0xE0041000
T0208 000:695.638 - 0.019ms returns 0
T0208 000:695.660 JLINK_ReadMemEx(0xE0041FD0, 0x20 Bytes, Flags = 0x02000004)
T0208 000:695.692   CPU_ReadMem(32 bytes @ 0xE0041FD0)
T0208 000:696.698   Data:  04 00 00 00 00 00 00 00 00 00 00 00 00 00 00 00 ...
T0208 000:696.714 - 1.057ms returns 32 (0x20)
T0208 000:696.726 JLINK_GetDebugInfo(0x102 = JLINKARM_DEBUG_INFO_MTB_ADDR_INDEX)
T0208 000:696.733   Value=0x00000000
T0208 000:696.743 - 0.020ms returns 0
T0208 000:696.751 JLINK_GetDebugInfo(0x103 = JLINKARM_DEBUG_INFO_TPIU_ADDR_INDEX)
T0208 000:696.758   Value=0xE0040000
T0208 000:696.768 - 0.019ms returns 0
T0208 000:696.776 JLINK_GetDebugInfo(0x104 = JLINKARM_DEBUG_INFO_ITM_ADDR_INDEX)
T0208 000:696.786   Value=0xE0000000
T0208 000:696.804 - 0.033ms returns 0
T0208 000:696.841 JLINK_GetDebugInfo(0x105 = JLINKARM_DEBUG_INFO_DWT_ADDR_INDEX)
T0208 000:696.855   Value=0xE0001000
T0208 000:696.864 - 0.026ms returns 0
T0208 000:696.887 JLINK_GetDebugInfo(0x106 = JLINKARM_DEBUG_INFO_FPB_ADDR_INDEX)
T0208 000:696.894   Value=0xE0002000
T0208 000:696.904 - 0.019ms returns 0
T0208 000:696.912 JLINK_GetDebugInfo(0x107 = JLINKARM_DEBUG_INFO_NVIC_ADDR_INDEX)
T0208 000:696.919   Value=0xE000E000
T0208 000:696.928 - 0.019ms returns 0
T0208 000:696.936 JLINK_GetDebugInfo(0x10C = JLINKARM_DEBUG_INFO_DBG_ADDR_INDEX)
T0208 000:696.944   Value=0xE000EDF0
T0208 000:696.953 - 0.020ms returns 0
T0208 000:696.961 JLINK_GetDebugInfo(0x01 = Unknown)
T0208 000:696.968   Value=0x00000001
T0208 000:696.978 - 0.019ms returns 0
T0208 000:696.986 JLINK_ReadMemU32(0xE000ED00, 0x1 Items)
T0208 000:696.998   CPU_ReadMem(4 bytes @ 0xE000ED00)
T0208 000:697.752   Data:  41 C2 0F 41
T0208 000:697.842   Debug reg: CPUID
T0208 000:697.869 - 0.889ms returns 1 (0x1)
T0208 000:697.887 JLINK_GetDebugInfo(0x10F = JLINKARM_DEBUG_INFO_HAS_CORTEX_M_SECURITY_EXT_INDEX)
T0208 000:697.909   Value=0x00000000
T0208 000:697.920 - 0.036ms returns 0
T0208 000:697.930 JLINK_HasError()
T0208 000:697.940 JLINK_SetResetType(JLINKARM_CM3_RESET_TYPE_NORMAL)
T0208 000:697.947 - 0.010ms returns JLINKARM_CM3_RESET_TYPE_NORMAL
T0208 000:697.956 JLINK_Reset()
T0208 000:697.994   CPU is running
T0208 000:698.008   CPU_WriteMem(4 bytes @ 0xE000EDF0)
T0208 000:698.757   CPU is running
T0208 000:698.812   CPU_WriteMem(4 bytes @ 0xE000EDFC)
T0208 000:703.898   Reset: Halt core after reset via DEMCR.VC_CORERESET.
T0208 000:709.179   Reset: Reset device via AIRCR.SYSRESETREQ.
T0208 000:709.206   CPU is running
T0208 000:709.220   CPU_WriteMem(4 bytes @ 0xE000ED0C)
T0208 000:763.045   CPU_ReadMem(4 bytes @ 0xE000EDF0)
T0208 000:763.706   CPU_ReadMem(4 bytes @ 0xE000EDF0)
T0208 000:764.196   CPU is running
T0208 000:764.215   CPU_WriteMem(4 bytes @ 0xE000EDF0)
T0208 000:764.795   CPU is running
T0208 000:764.813   CPU_WriteMem(4 bytes @ 0xE000EDFC)
T0208 000:771.261   CPU_ReadMem(4 bytes @ 0xE000EDF0)
T0208 000:782.432   AfterResetTarget()
T0208 000:829.935   CPU_WriteMem(4 bytes @ 0xE0002000)
T0208 000:830.426   CPU_ReadMem(4 bytes @ 0xE000EDFC)
T0208 000:830.905   CPU_ReadMem(4 bytes @ 0xE0001000)
T0208 000:831.490 - 133.544ms
T0208 000:831.516 JLINK_Halt()
T0208 000:831.524 - 0.011ms returns 0x00
T0208 000:831.536 JLINK_ReadMemU32(0xE000EDF0, 0x1 Items)
T0208 000:831.551   CPU_ReadMem(4 bytes @ 0xE000EDF0)
T0208 000:832.028   Data:  0B 00 03 00
T0208 000:832.044   Debug reg: DHCSR
T0208 000:832.055 - 0.522ms returns 1 (0x1)
T0208 000:832.068 JLINK_WriteU32_64(0xE000EDF0, 0xA05F0003)
T0208 000:832.081   Debug reg: DHCSR
T0208 000:832.362   CPU_WriteMem(4 bytes @ 0xE000EDF0)
T0208 000:832.911 - 0.851ms returns 0 (0x00000000)
T0208 000:832.930 JLINK_WriteU32_64(0xE000EDFC, 0x01000000)
T0208 000:832.938   Debug reg: DEMCR
T0208 000:832.955   CPU_WriteMem(4 bytes @ 0xE000EDFC)
T0208 000:833.523 - 0.603ms returns 0 (0x00000000)
T0208 000:848.000 JLINK_GetHWStatus(...)
T0208 000:848.315 - 0.326ms returns 0
T0208 000:864.395 JLINK_GetNumBPUnits(Type = 0xFFFFFF00)
T0208 000:864.416 - 0.024ms returns 0x06
T0208 000:864.425 JLINK_GetNumBPUnits(Type = 0xF0)
T0208 000:864.432 - 0.010ms returns 0x2000
T0208 000:864.441 JLINK_GetNumWPUnits()
T0208 000:864.447 - 0.009ms returns 4
T0208 000:877.571 JLINK_GetSpeed()
T0208 000:877.589 - 0.021ms returns 1429
T0208 000:884.191 JLINK_ReadMemU32(0xE000E004, 0x1 Items)
T0208 000:884.253   CPU_ReadMem(4 bytes @ 0xE000E004)
T0208 000:884.847   Data:  02 00 00 00
T0208 000:884.864 - 0.677ms returns 1 (0x1)
T0208 000:884.879 JLINK_ReadMemU32(0xE000E004, 0x1 Items)
T0208 000:884.892   CPU_ReadMem(4 bytes @ 0xE000E004)
T0208 000:885.446   Data:  02 00 00 00
T0208 000:885.462 - 0.586ms returns 1 (0x1)
T0208 000:885.475 JLINK_WriteMemEx(0xE0001000, 0x0000001C Bytes, Flags = 0x02000004)
T0208 000:885.483   Data:  01 00 00 00 00 00 00 00 00 00 00 00 00 00 00 00 ...
T0208 000:885.501   CPU_WriteMem(28 bytes @ 0xE0001000)
T0208 000:886.320 - 0.855ms returns 0x1C
T0208 000:886.367 JLINK_Halt()
T0208 000:886.375 - 0.011ms returns 0x00
T0208 000:886.384 JLINK_IsHalted()
T0208 000:886.392 - 0.010ms returns TRUE
T0208 000:893.174 JLINK_WriteMem(0x20000000, 0x440 Bytes, ...)
T0208 000:893.188   Data:  00 BE 0A E0 0D 78 2D 06 68 40 08 24 40 00 00 D3 ...
T0208 000:893.436   CPU_WriteMem(1088 bytes @ 0x20000000)
T0208 000:905.593 - 12.444ms returns 0x440
T0208 000:905.675 JLINK_HasError()
T0208 000:905.699 JLINK_WriteReg(R0, 0x00000000)
T0208 000:905.712 - 0.017ms returns 0
T0208 000:905.722 JLINK_WriteReg(R1, 0x00B71B00)
T0208 000:905.730 - 0.011ms returns 0
T0208 000:905.739 JLINK_WriteReg(R2, 0x00000001)
T0208 000:905.746 - 0.010ms returns 0
T0208 000:905.755 JLINK_WriteReg(R3, 0x00000000)
T0208 000:905.762 - 0.011ms returns 0
T0208 000:905.774 JLINK_WriteReg(R4, 0x00000000)
T0208 000:905.786 - 0.021ms returns 0
T0208 000:905.807 JLINK_WriteReg(R5, 0x00000000)
T0208 000:905.845 - 0.044ms returns 0
T0208 000:905.864 JLINK_WriteReg(R6, 0x00000000)
T0208 000:905.884 - 0.024ms returns 0
T0208 000:905.895 JLINK_WriteReg(R7, 0x00000000)
T0208 000:905.916 - 0.043ms returns 0
T0208 000:905.944 JLINK_WriteReg(R8, 0x00000000)
T0208 000:905.978 - 0.051ms returns 0
T0208 000:906.002 JLINK_WriteReg(R9, 0x20000438)
T0208 000:906.032 - 0.035ms returns 0
T0208 000:906.043 JLINK_WriteReg(R10, 0x00000000)
T0208 000:906.051 - 0.015ms returns 0
T0208 000:906.068 JLINK_WriteReg(R11, 0x00000000)
T0208 000:906.084 - 0.024ms returns 0
T0208 000:906.102 JLINK_WriteReg(R12, 0x00000000)
T0208 000:906.122 - 0.025ms returns 0
T0208 000:906.137 JLINK_WriteReg(R13 (SP), 0x20001000)
T0208 000:906.151 - 0.024ms returns 0
T0208 000:906.174 JLINK_WriteReg(R14, 0x20000001)
T0208 000:906.184 - 0.026ms returns 0
T0208 000:906.206 JLINK_WriteReg(R15 (PC), 0x20000020)
T0208 000:906.236 - 0.032ms returns 0
T0208 000:906.244 JLINK_WriteReg(XPSR, 0x01000000)
T0208 000:906.252 - 0.011ms returns 0
T0208 000:906.260 JLINK_WriteReg(MSP, 0x20001000)
T0208 000:906.267 - 0.010ms returns 0
T0208 000:906.276 JLINK_WriteReg(PSP, 0x20001000)
T0208 000:906.283 - 0.010ms returns 0
T0208 000:906.291 JLINK_WriteReg(CFBP, 0x00000000)
T0208 000:906.299 - 0.010ms returns 0
T0208 000:906.308 JLINK_SetBPEx(Addr = 0x20000000, Type = 0xFFFFFFF2)
T0208 000:906.342   CPU_ReadMem(2 bytes @ 0x20000000)
T0208 000:906.953 - 0.673ms returns 0x00000001
T0208 000:907.026 JLINK_Go()
T0208 000:907.065   CPU_WriteMem(2 bytes @ 0x20000000)
T0208 000:907.702   CPU_ReadMem(4 bytes @ 0xE0001000)
T0208 000:908.305   CPU_WriteMem(4 bytes @ 0xE0002008)
T0208 000:908.322   CPU_WriteMem(4 bytes @ 0xE000200C)
T0208 000:908.333   CPU_WriteMem(4 bytes @ 0xE0002010)
T0208 000:908.343   CPU_WriteMem(4 bytes @ 0xE0002014)
T0208 000:908.367   CPU_WriteMem(4 bytes @ 0xE0002018)
T0208 000:908.377   CPU_WriteMem(4 bytes @ 0xE000201C)
T0208 000:911.066   CPU_WriteMem(4 bytes @ 0xE0001004)
T0208 000:916.668 - 9.675ms
T0208 000:916.727 JLINK_IsHalted()
T0208 000:922.060   CPU_ReadMem(2 bytes @ 0x20000000)
T0208 000:922.615 - 5.900ms returns TRUE
T0208 000:922.641 JLINK_ReadReg(R15 (PC))
T0208 000:922.653 - 0.016ms returns 0x20000000
T0208 000:922.665 JLINK_ClrBPEx(BPHandle = 0x00000001)
T0208 000:922.673 - 0.012ms returns 0x00
T0208 000:922.682 JLINK_ReadReg(R0)
T0208 000:922.691 - 0.017ms returns 0x00000000
T0208 000:924.115 JLINK_HasError()
T0208 000:924.137 JLINK_WriteReg(R0, 0x00000000)
T0208 000:924.149 - 0.016ms returns 0
T0208 000:924.159 JLINK_WriteReg(R1, 0x00001000)
T0208 000:924.166 - 0.011ms returns 0
T0208 000:924.175 JLINK_WriteReg(R2, 0x000000FF)
T0208 000:924.182 - 0.010ms returns 0
T0208 000:924.193 JLINK_WriteReg(R3, 0x00000000)
T0208 000:924.203 - 0.015ms returns 0
T0208 000:924.216 JLINK_WriteReg(R4, 0x00000000)
T0208 000:924.227 - 0.015ms returns 0
T0208 000:924.239 JLINK_WriteReg(R5, 0x00000000)
T0208 000:924.253 - 0.020ms returns 0
T0208 000:924.267 JLINK_WriteReg(R6, 0x00000000)
T0208 000:924.277 - 0.014ms returns 0
T0208 000:924.289 JLINK_WriteReg(R7, 0x00000000)
T0208 000:924.301 - 0.017ms returns 0
T0208 000:924.315 JLINK_WriteReg(R8, 0x00000000)
T0208 000:924.329 - 0.017ms returns 0
T0208 000:924.338 JLINK_WriteReg(R9, 0x20000438)
T0208 000:924.346 - 0.011ms returns 0
T0208 000:924.354 JLINK_WriteReg(R10, 0x00000000)
T0208 000:924.362 - 0.010ms returns 0
T0208 000:924.371 JLINK_WriteReg(R11, 0x00000000)
T0208 000:924.378 - 0.010ms returns 0
T0208 000:924.387 JLINK_WriteReg(R12, 0x00000000)
T0208 000:924.394 - 0.010ms returns 0
T0208 000:924.403 JLINK_WriteReg(R13 (SP), 0x20001000)
T0208 000:924.411 - 0.024ms returns 0
T0208 000:924.433 JLINK_WriteReg(R14, 0x20000001)
T0208 000:924.440 - 0.010ms returns 0
T0208 000:924.448 JLINK_WriteReg(R15 (PC), 0x20000074)
T0208 000:924.456 - 0.010ms returns 0
T0208 000:924.464 JLINK_WriteReg(XPSR, 0x01000000)
T0208 000:924.471 - 0.010ms returns 0
T0208 000:924.480 JLINK_WriteReg(MSP, 0x20001000)
T0208 000:924.487 - 0.010ms returns 0
T0208 000:924.495 JLINK_WriteReg(PSP, 0x20001000)
T0208 000:924.502 - 0.010ms returns 0
T0208 000:924.511 JLINK_WriteReg(CFBP, 0x00000000)
T0208 000:924.518 - 0.010ms returns 0
T0208 000:924.527 JLINK_SetBPEx(Addr = 0x20000000, Type = 0xFFFFFFF2)
T0208 000:924.536 - 0.012ms returns 0x00000002
T0208 000:924.545 JLINK_Go()
T0208 000:924.567   CPU_ReadMem(4 bytes @ 0xE0001000)
T0208 000:930.012 - 5.526ms
T0208 000:930.082 JLINK_IsHalted()
T0208 000:935.375   CPU_ReadMem(2 bytes @ 0x20000000)
T0208 000:935.919 - 5.849ms returns TRUE
T0208 000:935.973 JLINK_ReadReg(R15 (PC))
T0208 000:935.999 - 0.033ms returns 0x20000000
T0208 000:936.020 JLINK_ClrBPEx(BPHandle = 0x00000002)
T0208 000:936.030 - 0.014ms returns 0x00
T0208 000:936.044 JLINK_ReadReg(R0)
T0208 000:936.059 - 0.019ms returns 0x00000001
T0208 000:936.070 JLINK_HasError()
T0208 000:936.080 JLINK_WriteReg(R0, 0x00000000)
T0208 000:936.089 - 0.012ms returns 0
T0208 000:936.098 JLINK_WriteReg(R1, 0x00001000)
T0208 000:936.106 - 0.011ms returns 0
T0208 000:936.115 JLINK_WriteReg(R2, 0x000000FF)
T0208 000:936.122 - 0.011ms returns 0
T0208 000:936.131 JLINK_WriteReg(R3, 0x00000000)
T0208 000:936.138 - 0.010ms returns 0
T0208 000:936.147 JLINK_WriteReg(R4, 0x00000000)
T0208 000:936.154 - 0.010ms returns 0
T0208 000:936.163 JLINK_WriteReg(R5, 0x00000000)
T0208 000:936.171 - 0.011ms returns 0
T0208 000:936.179 JLINK_WriteReg(R6, 0x00000000)
T0208 000:936.187 - 0.011ms returns 0
T0208 000:936.196 JLINK_WriteReg(R7, 0x00000000)
T0208 000:936.203 - 0.010ms returns 0
T0208 000:936.212 JLINK_WriteReg(R8, 0x00000000)
T0208 000:936.219 - 0.011ms returns 0
T0208 000:936.228 JLINK_WriteReg(R9, 0x20000438)
T0208 000:936.235 - 0.010ms returns 0
T0208 000:936.244 JLINK_WriteReg(R10, 0x00000000)
T0208 000:936.251 - 0.011ms returns 0
T0208 000:936.260 JLINK_WriteReg(R11, 0x00000000)
T0208 000:936.268 - 0.010ms returns 0
T0208 000:936.276 JLINK_WriteReg(R12, 0x00000000)
T0208 000:936.284 - 0.011ms returns 0
T0208 000:936.293 JLINK_WriteReg(R13 (SP), 0x20001000)
T0208 000:936.300 - 0.011ms returns 0
T0208 000:936.309 JLINK_WriteReg(R14, 0x20000001)
T0208 000:936.316 - 0.010ms returns 0
T0208 000:936.325 JLINK_WriteReg(R15 (PC), 0x200000CA)
T0208 000:936.333 - 0.010ms returns 0
T0208 000:936.341 JLINK_WriteReg(XPSR, 0x01000000)
T0208 000:936.349 - 0.011ms returns 0
T0208 000:936.358 JLINK_WriteReg(MSP, 0x20001000)
T0208 000:936.365 - 0.010ms returns 0
T0208 000:936.374 JLINK_WriteReg(PSP, 0x20001000)
T0208 000:936.381 - 0.015ms returns 0
T0208 000:936.394 JLINK_WriteReg(CFBP, 0x00000000)
T0208 000:936.402 - 0.011ms returns 0
T0208 000:936.411 JLINK_SetBPEx(Addr = 0x20000000, Type = 0xFFFFFFF2)
T0208 000:936.421 - 0.013ms returns 0x00000003
T0208 000:936.430 JLINK_Go()
T0208 000:936.445   CPU_ReadMem(4 bytes @ 0xE0001000)
T0208 000:941.836 - 5.455ms
T0208 000:941.917 JLINK_IsHalted()
T0208 000:942.446 - 0.571ms returns FALSE
T0208 000:942.496 JLINK_HasError()
T0208 000:980.867 JLINK_IsHalted()
T0208 000:986.155   CPU_ReadMem(2 bytes @ 0x20000000)
T0208 000:986.683 - 5.831ms returns TRUE
T0208 000:986.714 JLINK_ReadReg(R15 (PC))
T0208 000:986.738 - 0.033ms returns 0x20000000
T0208 000:986.760 JLINK_ClrBPEx(BPHandle = 0x00000003)
T0208 000:986.772 - 0.015ms returns 0x00
T0208 000:986.781 JLINK_ReadReg(R0)
T0208 000:986.789 - 0.011ms returns 0x00000000
T0208 000:987.936 JLINK_HasError()
T0208 000:987.957 JLINK_WriteReg(R0, 0x00001000)
T0208 000:987.969 - 0.015ms returns 0
T0208 000:987.978 JLINK_WriteReg(R1, 0x00001000)
T0208 000:987.986 - 0.011ms returns 0
T0208 000:987.995 JLINK_WriteReg(R2, 0x000000FF)
T0208 000:988.002 - 0.010ms returns 0
T0208 000:988.011 JLINK_WriteReg(R3, 0x00000000)
T0208 000:988.018 - 0.010ms returns 0
T0208 000:988.027 JLINK_WriteReg(R4, 0x00000000)
T0208 000:988.034 - 0.011ms returns 0
T0208 000:988.043 JLINK_WriteReg(R5, 0x00000000)
T0208 000:988.050 - 0.010ms returns 0
T0208 000:988.059 JLINK_WriteReg(R6, 0x00000000)
T0208 000:988.067 - 0.010ms returns 0
T0208 000:988.075 JLINK_WriteReg(R7, 0x00000000)
T0208 000:988.083 - 0.010ms returns 0
T0208 000:988.091 JLINK_WriteReg(R8, 0x00000000)
T0208 000:988.099 - 0.010ms returns 0
T0208 000:988.108 JLINK_WriteReg(R9, 0x20000438)
T0208 000:988.115 - 0.011ms returns 0
T0208 000:988.124 JLINK_WriteReg(R10, 0x00000000)
T0208 000:988.131 - 0.010ms returns 0
T0208 000:988.144 JLINK_WriteReg(R11, 0x00000000)
T0208 000:988.157 - 0.016ms returns 0
T0208 000:988.166 JLINK_WriteReg(R12, 0x00000000)
T0208 000:988.174 - 0.011ms returns 0
T0208 000:988.183 JLINK_WriteReg(R13 (SP), 0x20001000)
T0208 000:988.192 - 0.012ms returns 0
T0208 000:988.201 JLINK_WriteReg(R14, 0x20000001)
T0208 000:988.209 - 0.011ms returns 0
T0208 000:988.217 JLINK_WriteReg(R15 (PC), 0x20000074)
T0208 000:988.225 - 0.011ms returns 0
T0208 000:988.234 JLINK_WriteReg(XPSR, 0x01000000)
T0208 000:988.241 - 0.011ms returns 0
T0208 000:988.250 JLINK_WriteReg(MSP, 0x20001000)
T0208 000:988.258 - 0.011ms returns 0
T0208 000:988.266 JLINK_WriteReg(PSP, 0x20001000)
T0208 000:988.274 - 0.011ms returns 0
T0208 000:988.283 JLINK_WriteReg(CFBP, 0x00000000)
T0208 000:988.290 - 0.011ms returns 0
T0208 000:988.300 JLINK_SetBPEx(Addr = 0x20000000, Type = 0xFFFFFFF2)
T0208 000:988.310 - 0.013ms returns 0x00000004
T0208 000:988.319 JLINK_Go()
T0208 000:988.338   CPU_ReadMem(4 bytes @ 0xE0001000)
T0208 000:993.845 - 5.542ms
T0208 000:993.871 JLINK_IsHalted()
T0208 000:999.124   CPU_ReadMem(2 bytes @ 0x20000000)
T0208 000:999.648 - 5.785ms returns TRUE
T0208 000:999.668 JLINK_ReadReg(R15 (PC))
T0208 000:999.679 - 0.014ms returns 0x20000000
T0208 000:999.688 JLINK_ClrBPEx(BPHandle = 0x00000004)
T0208 000:999.696 - 0.011ms returns 0x00
T0208 000:999.766 JLINK_ReadReg(R0)
T0208 000:999.779 - 0.016ms returns 0x00000001
T0208 000:999.789 JLINK_HasError()
T0208 000:999.799 JLINK_WriteReg(R0, 0x00001000)
T0208 000:999.807 - 0.011ms returns 0
T0208 000:999.815 JLINK_WriteReg(R1, 0x00001000)
T0208 000:999.822 - 0.010ms returns 0
T0208 000:999.831 JLINK_WriteReg(R2, 0x000000FF)
T0208 000:999.838 - 0.010ms returns 0
T0208 000:999.846 JLINK_WriteReg(R3, 0x00000000)
T0208 000:999.853 - 0.010ms returns 0
T0208 000:999.862 JLINK_WriteReg(R4, 0x00000000)
T0208 000:999.869 - 0.010ms returns 0
T0208 000:999.877 JLINK_WriteReg(R5, 0x00000000)
T0208 000:999.884 - 0.010ms returns 0
T0208 000:999.893 JLINK_WriteReg(R6, 0x00000000)
T0208 000:999.900 - 0.010ms returns 0
T0208 000:999.908 JLINK_WriteReg(R7, 0x00000000)
T0208 000:999.915 - 0.010ms returns 0
T0208 000:999.924 JLINK_WriteReg(R8, 0x00000000)
T0208 000:999.931 - 0.010ms returns 0
T0208 000:999.939 JLINK_WriteReg(R9, 0x20000438)
T0208 000:999.946 - 0.010ms returns 0
T0208 000:999.955 JLINK_WriteReg(R10, 0x00000000)
T0208 000:999.962 - 0.010ms returns 0
T0208 000:999.970 JLINK_WriteReg(R11, 0x00000000)
T0208 000:999.977 - 0.010ms returns 0
T0208 000:999.986 JLINK_WriteReg(R12, 0x00000000)
T0208 000:999.993 - 0.010ms returns 0
T0208 001:000.001 JLINK_WriteReg(R13 (SP), 0x20001000)
T0208 001:000.009 - 0.010ms returns 0
T0208 001:000.017 JLINK_WriteReg(R14, 0x20000001)
T0208 001:000.024 - 0.010ms returns 0
T0208 001:000.032 JLINK_WriteReg(R15 (PC), 0x200000CA)
T0208 001:000.040 - 0.010ms returns 0
T0208 001:000.048 JLINK_WriteReg(XPSR, 0x01000000)
T0208 001:000.055 - 0.010ms returns 0
T0208 001:000.064 JLINK_WriteReg(MSP, 0x20001000)
T0208 001:000.071 - 0.010ms returns 0
T0208 001:000.079 JLINK_WriteReg(PSP, 0x20001000)
T0208 001:000.086 - 0.010ms returns 0
T0208 001:000.094 JLINK_WriteReg(CFBP, 0x00000000)
T0208 001:000.101 - 0.010ms returns 0
T0208 001:000.110 JLINK_SetBPEx(Addr = 0x20000000, Type = 0xFFFFFFF2)
T0208 001:000.118 - 0.011ms returns 0x00000005
T0208 001:000.127 JLINK_Go()
T0208 001:000.140   CPU_ReadMem(4 bytes @ 0xE0001000)
T0208 001:006.074 - 5.961ms
T0208 001:006.098 JLINK_IsHalted()
T0208 001:006.825 - 0.737ms returns FALSE
T0208 001:006.844 JLINK_HasError()
T0208 001:012.189 JLINK_IsHalted()
T0208 001:012.877 - 0.699ms returns FALSE
T0208 001:012.897 JLINK_HasError()
T0208 001:014.058 JLINK_IsHalted()
T0208 001:014.607 - 0.557ms returns FALSE
T0208 001:014.624 JLINK_HasError()
T0208 001:018.922 JLINK_IsHalted()
T0208 001:024.478   CPU_ReadMem(2 bytes @ 0x20000000)
T0208 001:025.153 - 6.238ms returns TRUE
T0208 001:025.173 JLINK_ReadReg(R15 (PC))
T0208 001:025.183 - 0.014ms returns 0x20000000
T0208 001:025.196 JLINK_ClrBPEx(BPHandle = 0x00000005)
T0208 001:025.207 - 0.014ms returns 0x00
T0208 001:025.217 JLINK_ReadReg(R0)
T0208 001:025.225 - 0.011ms returns 0x00000000
T0208 001:025.948 JLINK_HasError()
T0208 001:025.964 JLINK_WriteReg(R0, 0x00002000)
T0208 001:025.974 - 0.014ms returns 0
T0208 001:025.983 JLINK_WriteReg(R1, 0x00001000)
T0208 001:025.990 - 0.010ms returns 0
T0208 001:025.999 JLINK_WriteReg(R2, 0x000000FF)
T0208 001:026.006 - 0.010ms returns 0
T0208 001:026.014 JLINK_WriteReg(R3, 0x00000000)
T0208 001:026.021 - 0.010ms returns 0
T0208 001:026.030 JLINK_WriteReg(R4, 0x00000000)
T0208 001:026.037 - 0.010ms returns 0
T0208 001:026.045 JLINK_WriteReg(R5, 0x00000000)
T0208 001:026.052 - 0.010ms returns 0
T0208 001:026.061 JLINK_WriteReg(R6, 0x00000000)
T0208 001:026.068 - 0.010ms returns 0
T0208 001:026.076 JLINK_WriteReg(R7, 0x00000000)
T0208 001:026.083 - 0.010ms returns 0
T0208 001:026.092 JLINK_WriteReg(R8, 0x00000000)
T0208 001:026.099 - 0.010ms returns 0
T0208 001:026.107 JLINK_WriteReg(R9, 0x20000438)
T0208 001:026.114 - 0.010ms returns 0
T0208 001:026.123 JLINK_WriteReg(R10, 0x00000000)
T0208 001:026.130 - 0.010ms returns 0
T0208 001:026.138 JLINK_WriteReg(R11, 0x00000000)
T0208 001:026.145 - 0.010ms returns 0
T0208 001:026.154 JLINK_WriteReg(R12, 0x00000000)
T0208 001:026.161 - 0.010ms returns 0
T0208 001:026.169 JLINK_WriteReg(R13 (SP), 0x20001000)
T0208 001:026.177 - 0.011ms returns 0
T0208 001:026.185 JLINK_WriteReg(R14, 0x20000001)
T0208 001:026.192 - 0.010ms returns 0
T0208 001:026.201 JLINK_WriteReg(R15 (PC), 0x20000074)
T0208 001:026.208 - 0.010ms returns 0
T0208 001:026.216 JLINK_WriteReg(XPSR, 0x01000000)
T0208 001:026.223 - 0.010ms returns 0
T0208 001:026.232 JLINK_WriteReg(MSP, 0x20001000)
T0208 001:026.239 - 0.010ms returns 0
T0208 001:026.247 JLINK_WriteReg(PSP, 0x20001000)
T0208 001:026.254 - 0.010ms returns 0
T0208 001:026.263 JLINK_WriteReg(CFBP, 0x00000000)
T0208 001:026.270 - 0.010ms returns 0
T0208 001:026.278 JLINK_SetBPEx(Addr = 0x20000000, Type = 0xFFFFFFF2)
T0208 001:026.286 - 0.011ms returns 0x00000006
T0208 001:026.295 JLINK_Go()
T0208 001:026.309   CPU_ReadMem(4 bytes @ 0xE0001000)
T0208 001:031.786 - 5.501ms
T0208 001:031.806 JLINK_IsHalted()
T0208 001:037.290   CPU_ReadMem(2 bytes @ 0x20000000)
T0208 001:038.141 - 6.357ms returns TRUE
T0208 001:038.178 JLINK_ReadReg(R15 (PC))
T0208 001:038.194 - 0.020ms returns 0x20000000
T0208 001:038.206 JLINK_ClrBPEx(BPHandle = 0x00000006)
T0208 001:038.217 - 0.015ms returns 0x00
T0208 001:038.228 JLINK_ReadReg(R0)
T0208 001:038.238 - 0.014ms returns 0x00000001
T0208 001:038.250 JLINK_HasError()
T0208 001:038.263 JLINK_WriteReg(R0, 0x00002000)
T0208 001:038.273 - 0.015ms returns 0
T0208 001:038.285 JLINK_WriteReg(R1, 0x00001000)
T0208 001:038.294 - 0.014ms returns 0
T0208 001:038.306 JLINK_WriteReg(R2, 0x000000FF)
T0208 001:038.317 - 0.016ms returns 0
T0208 001:038.330 JLINK_WriteReg(R3, 0x00000000)
T0208 001:038.339 - 0.014ms returns 0
T0208 001:038.351 JLINK_WriteReg(R4, 0x00000000)
T0208 001:038.360 - 0.014ms returns 0
T0208 001:038.371 JLINK_WriteReg(R5, 0x00000000)
T0208 001:038.381 - 0.018ms returns 0
T0208 001:038.399 JLINK_WriteReg(R6, 0x00000000)
T0208 001:038.411 - 0.015ms returns 0
T0208 001:038.422 JLINK_WriteReg(R7, 0x00000000)
T0208 001:038.431 - 0.014ms returns 0
T0208 001:038.442 JLINK_WriteReg(R8, 0x00000000)
T0208 001:038.453 - 0.015ms returns 0
T0208 001:038.466 JLINK_WriteReg(R9, 0x20000438)
T0208 001:038.484 - 0.024ms returns 0
T0208 001:038.499 JLINK_WriteReg(R10, 0x00000000)
T0208 001:038.518 - 0.028ms returns 0
T0208 001:038.539 JLINK_WriteReg(R11, 0x00000000)
T0208 001:038.559 - 0.032ms returns 0
T0208 001:038.589 JLINK_WriteReg(R12, 0x00000000)
T0208 001:038.604 - 0.023ms returns 0
T0208 001:038.626 JLINK_WriteReg(R13 (SP), 0x20001000)
T0208 001:038.650 - 0.033ms returns 0
T0208 001:038.672 JLINK_WriteReg(R14, 0x20000001)
T0208 001:038.690 - 0.025ms returns 0
T0208 001:038.704 JLINK_WriteReg(R15 (PC), 0x200000CA)
T0208 001:038.719 - 0.022ms returns 0
T0208 001:038.733 JLINK_WriteReg(XPSR, 0x01000000)
T0208 001:038.743 - 0.013ms returns 0
T0208 001:038.753 JLINK_WriteReg(MSP, 0x20001000)
T0208 001:038.762 - 0.013ms returns 0
T0208 001:038.773 JLINK_WriteReg(PSP, 0x20001000)
T0208 001:038.782 - 0.013ms returns 0
T0208 001:038.792 JLINK_WriteReg(CFBP, 0x00000000)
T0208 001:038.801 - 0.013ms returns 0
T0208 001:038.812 JLINK_SetBPEx(Addr = 0x20000000, Type = 0xFFFFFFF2)
T0208 001:038.824 - 0.016ms returns 0x00000007
T0208 001:038.835 JLINK_Go()
T0208 001:038.856   CPU_ReadMem(4 bytes @ 0xE0001000)
T0208 001:044.694 - 5.879ms
T0208 001:044.726 JLINK_IsHalted()
T0208 001:045.480 - 0.778ms returns FALSE
T0208 001:045.519 JLINK_HasError()
T0208 001:051.134 JLINK_IsHalted()
T0208 001:051.668 - 0.542ms returns FALSE
T0208 001:051.698 JLINK_HasError()
T0208 001:053.092 JLINK_IsHalted()
T0208 001:058.491   CPU_ReadMem(2 bytes @ 0x20000000)
T0208 001:059.057 - 5.975ms returns TRUE
T0208 001:059.078 JLINK_ReadReg(R15 (PC))
T0208 001:059.088 - 0.014ms returns 0x20000000
T0208 001:059.097 JLINK_ClrBPEx(BPHandle = 0x00000007)
T0208 001:059.105 - 0.011ms returns 0x00
T0208 001:059.114 JLINK_ReadReg(R0)
T0208 001:059.122 - 0.010ms returns 0x00000000
T0208 001:059.635 JLINK_HasError()
T0208 001:059.649 JLINK_WriteReg(R0, 0x00003000)
T0208 001:059.658 - 0.012ms returns 0
T0208 001:059.667 JLINK_WriteReg(R1, 0x00001000)
T0208 001:059.674 - 0.010ms returns 0
T0208 001:059.683 JLINK_WriteReg(R2, 0x000000FF)
T0208 001:059.690 - 0.010ms returns 0
T0208 001:059.698 JLINK_WriteReg(R3, 0x00000000)
T0208 001:059.705 - 0.010ms returns 0
T0208 001:059.714 JLINK_WriteReg(R4, 0x00000000)
T0208 001:059.721 - 0.010ms returns 0
T0208 001:059.729 JLINK_WriteReg(R5, 0x00000000)
T0208 001:059.736 - 0.010ms returns 0
T0208 001:059.745 JLINK_WriteReg(R6, 0x00000000)
T0208 001:059.752 - 0.010ms returns 0
T0208 001:059.760 JLINK_WriteReg(R7, 0x00000000)
T0208 001:059.767 - 0.010ms returns 0
T0208 001:059.776 JLINK_WriteReg(R8, 0x00000000)
T0208 001:059.783 - 0.010ms returns 0
T0208 001:059.791 JLINK_WriteReg(R9, 0x20000438)
T0208 001:059.798 - 0.010ms returns 0
T0208 001:059.807 JLINK_WriteReg(R10, 0x00000000)
T0208 001:059.814 - 0.010ms returns 0
T0208 001:059.822 JLINK_WriteReg(R11, 0x00000000)
T0208 001:059.829 - 0.010ms returns 0
T0208 001:059.838 JLINK_WriteReg(R12, 0x00000000)
T0208 001:059.845 - 0.010ms returns 0
T0208 001:059.853 JLINK_WriteReg(R13 (SP), 0x20001000)
T0208 001:059.861 - 0.011ms returns 0
T0208 001:059.869 JLINK_WriteReg(R14, 0x20000001)
T0208 001:059.876 - 0.010ms returns 0
T0208 001:059.885 JLINK_WriteReg(R15 (PC), 0x20000074)
T0208 001:059.894 - 0.012ms returns 0
T0208 001:059.903 JLINK_WriteReg(XPSR, 0x01000000)
T0208 001:059.910 - 0.010ms returns 0
T0208 001:059.918 JLINK_WriteReg(MSP, 0x20001000)
T0208 001:059.925 - 0.010ms returns 0
T0208 001:059.934 JLINK_WriteReg(PSP, 0x20001000)
T0208 001:059.941 - 0.010ms returns 0
T0208 001:059.949 JLINK_WriteReg(CFBP, 0x00000000)
T0208 001:059.956 - 0.010ms returns 0
T0208 001:059.965 JLINK_SetBPEx(Addr = 0x20000000, Type = 0xFFFFFFF2)
T0208 001:059.973 - 0.011ms returns 0x00000008
T0208 001:059.982 JLINK_Go()
T0208 001:059.997   CPU_ReadMem(4 bytes @ 0xE0001000)
T0208 001:065.850 - 5.879ms
T0208 001:065.896 JLINK_IsHalted()
T0208 001:071.411   CPU_ReadMem(2 bytes @ 0x20000000)
T0208 001:072.068 - 6.180ms returns TRUE
T0208 001:072.086 JLINK_ReadReg(R15 (PC))
T0208 001:072.101 - 0.024ms returns 0x20000000
T0208 001:072.120 JLINK_ClrBPEx(BPHandle = 0x00000008)
T0208 001:072.152 - 0.036ms returns 0x00
T0208 001:072.183 JLINK_ReadReg(R0)
T0208 001:072.191 - 0.012ms returns 0x00000001
T0208 001:072.201 JLINK_HasError()
T0208 001:072.210 JLINK_WriteReg(R0, 0x00003000)
T0208 001:072.232 - 0.025ms returns 0
T0208 001:072.241 JLINK_WriteReg(R1, 0x00001000)
T0208 001:072.248 - 0.030ms returns 0
T0208 001:072.276 JLINK_WriteReg(R2, 0x000000FF)
T0208 001:072.284 - 0.010ms returns 0
T0208 001:072.292 JLINK_WriteReg(R3, 0x00000000)
T0208 001:072.320 - 0.031ms returns 0
T0208 001:072.329 JLINK_WriteReg(R4, 0x00000000)
T0208 001:072.336 - 0.011ms returns 0
T0208 001:072.347 JLINK_WriteReg(R5, 0x00000000)
T0208 001:072.358 - 0.034ms returns 0
T0208 001:072.389 JLINK_WriteReg(R6, 0x00000000)
T0208 001:072.400 - 0.016ms returns 0
T0208 001:072.411 JLINK_WriteReg(R7, 0x00000000)
T0208 001:072.435 - 0.027ms returns 0
T0208 001:072.465 JLINK_WriteReg(R8, 0x00000000)
T0208 001:072.479 - 0.020ms returns 0
T0208 001:072.493 JLINK_WriteReg(R9, 0x20000438)
T0208 001:072.507 - 0.020ms returns 0
T0208 001:072.536 JLINK_WriteReg(R10, 0x00000000)
T0208 001:072.548 - 0.016ms returns 0
T0208 001:072.558 JLINK_WriteReg(R11, 0x00000000)
T0208 001:072.565 - 0.011ms returns 0
T0208 001:072.574 JLINK_WriteReg(R12, 0x00000000)
T0208 001:072.612 - 0.058ms returns 0
T0208 001:072.637 JLINK_WriteReg(R13 (SP), 0x20001000)
T0208 001:072.645 - 0.011ms returns 0
T0208 001:072.653 JLINK_WriteReg(R14, 0x20000001)
T0208 001:072.661 - 0.010ms returns 0
T0208 001:072.669 JLINK_WriteReg(R15 (PC), 0x200000CA)
T0208 001:072.676 - 0.010ms returns 0
T0208 001:072.685 JLINK_WriteReg(XPSR, 0x01000000)
T0208 001:072.692 - 0.010ms returns 0
T0208 001:072.700 JLINK_WriteReg(MSP, 0x20001000)
T0208 001:072.707 - 0.010ms returns 0
T0208 001:072.716 JLINK_WriteReg(PSP, 0x20001000)
T0208 001:072.723 - 0.010ms returns 0
T0208 001:072.731 JLINK_WriteReg(CFBP, 0x00000000)
T0208 001:072.738 - 0.010ms returns 0
T0208 001:072.747 JLINK_SetBPEx(Addr = 0x20000000, Type = 0xFFFFFFF2)
T0208 001:072.755 - 0.011ms returns 0x00000009
T0208 001:072.764 JLINK_Go()
T0208 001:072.779   CPU_ReadMem(4 bytes @ 0xE0001000)
T0208 001:078.446 - 5.695ms
T0208 001:078.472 JLINK_IsHalted()
T0208 001:079.014 - 0.563ms returns FALSE
T0208 001:079.048 JLINK_HasError()
T0208 001:097.938 JLINK_IsHalted()
T0208 001:103.150   CPU_ReadMem(2 bytes @ 0x20000000)
T0208 001:103.665 - 5.738ms returns TRUE
T0208 001:103.690 JLINK_ReadReg(R15 (PC))
T0208 001:103.706 - 0.022ms returns 0x20000000
T0208 001:103.721 JLINK_ClrBPEx(BPHandle = 0x00000009)
T0208 001:103.733 - 0.017ms returns 0x00
T0208 001:103.747 JLINK_ReadReg(R0)
T0208 001:103.760 - 0.018ms returns 0x00000000
T0208 001:104.650 JLINK_HasError()
T0208 001:104.675 JLINK_WriteReg(R0, 0x00004000)
T0208 001:104.691 - 0.022ms returns 0
T0208 001:104.706 JLINK_WriteReg(R1, 0x00001000)
T0208 001:104.726 - 0.026ms returns 0
T0208 001:104.742 JLINK_WriteReg(R2, 0x000000FF)
T0208 001:104.756 - 0.020ms returns 0
T0208 001:104.770 JLINK_WriteReg(R3, 0x00000000)
T0208 001:104.783 - 0.018ms returns 0
T0208 001:104.797 JLINK_WriteReg(R4, 0x00000000)
T0208 001:104.810 - 0.018ms returns 0
T0208 001:104.824 JLINK_WriteReg(R5, 0x00000000)
T0208 001:104.835 - 0.016ms returns 0
T0208 001:104.848 JLINK_WriteReg(R6, 0x00000000)
T0208 001:104.860 - 0.017ms returns 0
T0208 001:104.874 JLINK_WriteReg(R7, 0x00000000)
T0208 001:104.885 - 0.016ms returns 0
T0208 001:104.899 JLINK_WriteReg(R8, 0x00000000)
T0208 001:104.911 - 0.016ms returns 0
T0208 001:104.924 JLINK_WriteReg(R9, 0x20000438)
T0208 001:104.935 - 0.015ms returns 0
T0208 001:104.947 JLINK_WriteReg(R10, 0x00000000)
T0208 001:104.960 - 0.021ms returns 0
T0208 001:104.977 JLINK_WriteReg(R11, 0x00000000)
T0208 001:104.989 - 0.017ms returns 0
T0208 001:105.002 JLINK_WriteReg(R12, 0x00000000)
T0208 001:105.019 - 0.043ms returns 0
T0208 001:105.057 JLINK_WriteReg(R13 (SP), 0x20001000)
T0208 001:105.075 - 0.024ms returns 0
T0208 001:105.090 JLINK_WriteReg(R14, 0x20000001)
T0208 001:105.102 - 0.017ms returns 0
T0208 001:105.116 JLINK_WriteReg(R15 (PC), 0x20000074)
T0208 001:105.129 - 0.018ms returns 0
T0208 001:105.143 JLINK_WriteReg(XPSR, 0x01000000)
T0208 001:105.155 - 0.018ms returns 0
T0208 001:105.169 JLINK_WriteReg(MSP, 0x20001000)
T0208 001:105.181 - 0.017ms returns 0
T0208 001:105.258 JLINK_WriteReg(PSP, 0x20001000)
T0208 001:105.274 - 0.022ms returns 0
T0208 001:105.290 JLINK_WriteReg(CFBP, 0x00000000)
T0208 001:105.301 - 0.017ms returns 0
T0208 001:105.338 JLINK_SetBPEx(Addr = 0x20000000, Type = 0xFFFFFFF2)
T0208 001:105.362 - 0.030ms returns 0x0000000A
T0208 001:105.377 JLINK_Go()
T0208 001:105.435   CPU_ReadMem(4 bytes @ 0xE0001000)
T0208 001:110.984 - 5.623ms
T0208 001:111.011 JLINK_IsHalted()
T0208 001:116.200   CPU_ReadMem(2 bytes @ 0x20000000)
T0208 001:116.859 - 5.859ms returns TRUE
T0208 001:116.881 JLINK_ReadReg(R15 (PC))
T0208 001:116.893 - 0.015ms returns 0x20000000
T0208 001:116.903 JLINK_ClrBPEx(BPHandle = 0x0000000A)
T0208 001:116.911 - 0.012ms returns 0x00
T0208 001:116.921 JLINK_ReadReg(R0)
T0208 001:116.929 - 0.011ms returns 0x00000001
T0208 001:116.939 JLINK_HasError()
T0208 001:116.949 JLINK_WriteReg(R0, 0x00004000)
T0208 001:116.957 - 0.012ms returns 0
T0208 001:116.966 JLINK_WriteReg(R1, 0x00001000)
T0208 001:116.974 - 0.011ms returns 0
T0208 001:116.983 JLINK_WriteReg(R2, 0x000000FF)
T0208 001:116.990 - 0.011ms returns 0
T0208 001:116.999 JLINK_WriteReg(R3, 0x00000000)
T0208 001:117.007 - 0.011ms returns 0
T0208 001:117.016 JLINK_WriteReg(R4, 0x00000000)
T0208 001:117.023 - 0.011ms returns 0
T0208 001:117.033 JLINK_WriteReg(R5, 0x00000000)
T0208 001:117.040 - 0.011ms returns 0
T0208 001:117.049 JLINK_WriteReg(R6, 0x00000000)
T0208 001:117.057 - 0.011ms returns 0
T0208 001:117.066 JLINK_WriteReg(R7, 0x00000000)
T0208 001:117.073 - 0.011ms returns 0
T0208 001:117.082 JLINK_WriteReg(R8, 0x00000000)
T0208 001:117.090 - 0.011ms returns 0
T0208 001:117.099 JLINK_WriteReg(R9, 0x20000438)
T0208 001:117.106 - 0.011ms returns 0
T0208 001:117.115 JLINK_WriteReg(R10, 0x00000000)
T0208 001:117.123 - 0.011ms returns 0
T0208 001:117.132 JLINK_WriteReg(R11, 0x00000000)
T0208 001:117.139 - 0.011ms returns 0
T0208 001:117.148 JLINK_WriteReg(R12, 0x00000000)
T0208 001:117.156 - 0.011ms returns 0
T0208 001:117.165 JLINK_WriteReg(R13 (SP), 0x20001000)
T0208 001:117.172 - 0.011ms returns 0
T0208 001:117.181 JLINK_WriteReg(R14, 0x20000001)
T0208 001:117.189 - 0.011ms returns 0
T0208 001:117.198 JLINK_WriteReg(R15 (PC), 0x200000CA)
T0208 001:117.205 - 0.011ms returns 0
T0208 001:117.215 JLINK_WriteReg(XPSR, 0x01000000)
T0208 001:117.222 - 0.011ms returns 0
T0208 001:117.231 JLINK_WriteReg(MSP, 0x20001000)
T0208 001:117.239 - 0.011ms returns 0
T0208 001:117.248 JLINK_WriteReg(PSP, 0x20001000)
T0208 001:117.255 - 0.010ms returns 0
T0208 001:117.264 JLINK_WriteReg(CFBP, 0x00000000)
T0208 001:117.271 - 0.010ms returns 0
T0208 001:117.280 JLINK_SetBPEx(Addr = 0x20000000, Type = 0xFFFFFFF2)
T0208 001:117.288 - 0.012ms returns 0x0000000B
T0208 001:117.298 JLINK_Go()
T0208 001:117.345   CPU_ReadMem(4 bytes @ 0xE0001000)
T0208 001:122.805 - 5.524ms
T0208 001:122.837 JLINK_IsHalted()
T0208 001:123.354 - 0.530ms returns FALSE
T0208 001:123.381 JLINK_HasError()
T0208 001:129.227 JLINK_IsHalted()
T0208 001:129.790 - 0.573ms returns FALSE
T0208 001:129.813 JLINK_HasError()
T0208 001:131.144 JLINK_IsHalted()
T0208 001:136.360   CPU_ReadMem(2 bytes @ 0x20000000)
T0208 001:136.854 - 5.723ms returns TRUE
T0208 001:136.880 JLINK_ReadReg(R15 (PC))
T0208 001:136.909 - 0.034ms returns 0x20000000
T0208 001:136.923 JLINK_ClrBPEx(BPHandle = 0x0000000B)
T0208 001:136.936 - 0.018ms returns 0x00
T0208 001:136.952 JLINK_ReadReg(R0)
T0208 001:136.966 - 0.020ms returns 0x00000000
T0208 001:137.572 JLINK_HasError()
T0208 001:137.592 JLINK_WriteReg(R0, 0x00005000)
T0208 001:137.604 - 0.015ms returns 0
T0208 001:137.613 JLINK_WriteReg(R1, 0x00001000)
T0208 001:137.621 - 0.011ms returns 0
T0208 001:137.630 JLINK_WriteReg(R2, 0x000000FF)
T0208 001:137.639 - 0.014ms returns 0
T0208 001:137.651 JLINK_WriteReg(R3, 0x00000000)
T0208 001:137.662 - 0.015ms returns 0
T0208 001:137.672 JLINK_WriteReg(R4, 0x00000000)
T0208 001:137.681 - 0.015ms returns 0
T0208 001:137.698 JLINK_WriteReg(R5, 0x00000000)
T0208 001:137.713 - 0.020ms returns 0
T0208 001:137.727 JLINK_WriteReg(R6, 0x00000000)
T0208 001:137.739 - 0.017ms returns 0
T0208 001:137.753 JLINK_WriteReg(R7, 0x00000000)
T0208 001:137.765 - 0.018ms returns 0
T0208 001:137.784 JLINK_WriteReg(R8, 0x00000000)
T0208 001:137.800 - 0.022ms returns 0
T0208 001:137.814 JLINK_WriteReg(R9, 0x20000438)
T0208 001:137.826 - 0.017ms returns 0
T0208 001:137.840 JLINK_WriteReg(R10, 0x00000000)
T0208 001:137.852 - 0.018ms returns 0
T0208 001:137.867 JLINK_WriteReg(R11, 0x00000000)
T0208 001:137.878 - 0.017ms returns 0
T0208 001:137.892 JLINK_WriteReg(R12, 0x00000000)
T0208 001:137.903 - 0.016ms returns 0
T0208 001:137.917 JLINK_WriteReg(R13 (SP), 0x20001000)
T0208 001:137.929 - 0.019ms returns 0
T0208 001:137.945 JLINK_WriteReg(R14, 0x20000001)
T0208 001:137.960 - 0.021ms returns 0
T0208 001:137.974 JLINK_WriteReg(R15 (PC), 0x20000074)
T0208 001:137.990 - 0.024ms returns 0
T0208 001:138.006 JLINK_WriteReg(XPSR, 0x01000000)
T0208 001:138.032 - 0.029ms returns 0
T0208 001:138.041 JLINK_WriteReg(MSP, 0x20001000)
T0208 001:138.048 - 0.010ms returns 0
T0208 001:138.056 JLINK_WriteReg(PSP, 0x20001000)
T0208 001:138.063 - 0.010ms returns 0
T0208 001:138.097 JLINK_WriteReg(CFBP, 0x00000000)
T0208 001:138.104 - 0.011ms returns 0
T0208 001:138.113 JLINK_SetBPEx(Addr = 0x20000000, Type = 0xFFFFFFF2)
T0208 001:138.123 - 0.013ms returns 0x0000000C
T0208 001:138.132 JLINK_Go()
T0208 001:138.150   CPU_ReadMem(4 bytes @ 0xE0001000)
T0208 001:143.550 - 5.433ms
T0208 001:143.578 JLINK_IsHalted()
T0208 001:148.744   CPU_ReadMem(2 bytes @ 0x20000000)
T0208 001:149.243 - 5.678ms returns TRUE
T0208 001:149.269 JLINK_ReadReg(R15 (PC))
T0208 001:149.311 - 0.048ms returns 0x20000000
T0208 001:149.326 JLINK_ClrBPEx(BPHandle = 0x0000000C)
T0208 001:149.338 - 0.017ms returns 0x00
T0208 001:149.352 JLINK_ReadReg(R0)
T0208 001:149.364 - 0.017ms returns 0x00000001
T0208 001:149.379 JLINK_HasError()
T0208 001:149.393 JLINK_WriteReg(R0, 0x00005000)
T0208 001:149.406 - 0.018ms returns 0
T0208 001:149.420 JLINK_WriteReg(R1, 0x00001000)
T0208 001:149.432 - 0.017ms returns 0
T0208 001:149.445 JLINK_WriteReg(R2, 0x000000FF)
T0208 001:149.457 - 0.017ms returns 0
T0208 001:149.471 JLINK_WriteReg(R3, 0x00000000)
T0208 001:149.483 - 0.017ms returns 0
T0208 001:149.496 JLINK_WriteReg(R4, 0x00000000)
T0208 001:149.508 - 0.017ms returns 0
T0208 001:149.522 JLINK_WriteReg(R5, 0x00000000)
T0208 001:149.534 - 0.017ms returns 0
T0208 001:149.547 JLINK_WriteReg(R6, 0x00000000)
T0208 001:149.559 - 0.017ms returns 0
T0208 001:149.592 JLINK_WriteReg(R7, 0x00000000)
T0208 001:149.605 - 0.018ms returns 0
T0208 001:149.618 JLINK_WriteReg(R8, 0x00000000)
T0208 001:149.629 - 0.016ms returns 0
T0208 001:149.648 JLINK_WriteReg(R9, 0x20000438)
T0208 001:149.664 - 0.024ms returns 0
T0208 001:149.681 JLINK_WriteReg(R10, 0x00000000)
T0208 001:149.693 - 0.017ms returns 0
T0208 001:149.706 JLINK_WriteReg(R11, 0x00000000)
T0208 001:149.730 - 0.029ms returns 0
T0208 001:149.743 JLINK_WriteReg(R12, 0x00000000)
T0208 001:149.754 - 0.016ms returns 0
T0208 001:149.786 JLINK_WriteReg(R13 (SP), 0x20001000)
T0208 001:149.798 - 0.017ms returns 0
T0208 001:149.812 JLINK_WriteReg(R14, 0x20000001)
T0208 001:149.837 - 0.030ms returns 0
T0208 001:149.850 JLINK_WriteReg(R15 (PC), 0x200000CA)
T0208 001:149.862 - 0.017ms returns 0
T0208 001:149.895 JLINK_WriteReg(XPSR, 0x01000000)
T0208 001:149.907 - 0.017ms returns 0
T0208 001:149.920 JLINK_WriteReg(MSP, 0x20001000)
T0208 001:149.932 - 0.017ms returns 0
T0208 001:149.946 JLINK_WriteReg(PSP, 0x20001000)
T0208 001:149.972 - 0.051ms returns 0
T0208 001:150.006 JLINK_WriteReg(CFBP, 0x00000000)
T0208 001:150.018 - 0.017ms returns 0
T0208 001:150.046 JLINK_SetBPEx(Addr = 0x20000000, Type = 0xFFFFFFF2)
T0208 001:150.078 - 0.038ms returns 0x0000000D
T0208 001:150.092 JLINK_Go()
T0208 001:150.120   CPU_ReadMem(4 bytes @ 0xE0001000)
T0208 001:155.652 - 5.584ms
T0208 001:155.697 JLINK_IsHalted()
T0208 001:156.210 - 0.531ms returns FALSE
T0208 001:156.244 JLINK_HasError()
T0208 001:160.401 JLINK_IsHalted()
T0208 001:160.967 - 0.575ms returns FALSE
T0208 001:160.986 JLINK_HasError()
T0208 001:162.349 JLINK_IsHalted()
T0208 001:162.875 - 0.537ms returns FALSE
T0208 001:162.898 JLINK_HasError()
T0208 001:164.296 JLINK_IsHalted()
T0208 001:169.414   CPU_ReadMem(2 bytes @ 0x20000000)
T0208 001:169.957 - 5.686ms returns TRUE
T0208 001:169.995 JLINK_ReadReg(R15 (PC))
T0208 001:170.030 - 0.040ms returns 0x20000000
T0208 001:170.044 JLINK_ClrBPEx(BPHandle = 0x0000000D)
T0208 001:170.069 - 0.048ms returns 0x00
T0208 001:170.100 JLINK_ReadReg(R0)
T0208 001:170.112 - 0.016ms returns 0x00000000
T0208 001:170.826 JLINK_HasError()
T0208 001:170.856 JLINK_WriteReg(R0, 0x00006000)
T0208 001:170.871 - 0.019ms returns 0
T0208 001:170.881 JLINK_WriteReg(R1, 0x00001000)
T0208 001:170.902 - 0.024ms returns 0
T0208 001:170.911 JLINK_WriteReg(R2, 0x000000FF)
T0208 001:170.919 - 0.011ms returns 0
T0208 001:170.928 JLINK_WriteReg(R3, 0x00000000)
T0208 001:170.935 - 0.011ms returns 0
T0208 001:170.944 JLINK_WriteReg(R4, 0x00000000)
T0208 001:170.951 - 0.011ms returns 0
T0208 001:170.960 JLINK_WriteReg(R5, 0x00000000)
T0208 001:170.968 - 0.011ms returns 0
T0208 001:170.977 JLINK_WriteReg(R6, 0x00000000)
T0208 001:170.984 - 0.011ms returns 0
T0208 001:170.993 JLINK_WriteReg(R7, 0x00000000)
T0208 001:171.000 - 0.011ms returns 0
T0208 001:171.009 JLINK_WriteReg(R8, 0x00000000)
T0208 001:171.017 - 0.011ms returns 0
T0208 001:171.025 JLINK_WriteReg(R9, 0x20000438)
T0208 001:171.033 - 0.010ms returns 0
T0208 001:171.065 JLINK_WriteReg(R10, 0x00000000)
T0208 001:171.075 - 0.013ms returns 0
T0208 001:171.084 JLINK_WriteReg(R11, 0x00000000)
T0208 001:171.091 - 0.010ms returns 0
T0208 001:171.100 JLINK_WriteReg(R12, 0x00000000)
T0208 001:171.107 - 0.010ms returns 0
T0208 001:171.116 JLINK_WriteReg(R13 (SP), 0x20001000)
T0208 001:171.127 - 0.019ms returns 0
T0208 001:171.145 JLINK_WriteReg(R14, 0x20000001)
T0208 001:171.157 - 0.017ms returns 0
T0208 001:171.169 JLINK_WriteReg(R15 (PC), 0x20000074)
T0208 001:171.180 - 0.015ms returns 0
T0208 001:171.192 JLINK_WriteReg(XPSR, 0x01000000)
T0208 001:171.202 - 0.015ms returns 0
T0208 001:171.213 JLINK_WriteReg(MSP, 0x20001000)
T0208 001:171.223 - 0.015ms returns 0
T0208 001:171.235 JLINK_WriteReg(PSP, 0x20001000)
T0208 001:171.245 - 0.015ms returns 0
T0208 001:171.257 JLINK_WriteReg(CFBP, 0x00000000)
T0208 001:171.267 - 0.015ms returns 0
T0208 001:171.279 JLINK_SetBPEx(Addr = 0x20000000, Type = 0xFFFFFFF2)
T0208 001:171.304 - 0.049ms returns 0x0000000E
T0208 001:171.335 JLINK_Go()
T0208 001:171.358   CPU_ReadMem(4 bytes @ 0xE0001000)
T0208 001:176.864 - 5.544ms
T0208 001:176.890 JLINK_IsHalted()
T0208 001:182.012   CPU_ReadMem(2 bytes @ 0x20000000)
T0208 001:182.574 - 5.696ms returns TRUE
T0208 001:182.603 JLINK_ReadReg(R15 (PC))
T0208 001:182.624 - 0.027ms returns 0x20000000
T0208 001:182.641 JLINK_ClrBPEx(BPHandle = 0x0000000E)
T0208 001:182.657 - 0.020ms returns 0x00
T0208 001:182.673 JLINK_ReadReg(R0)
T0208 001:182.689 - 0.020ms returns 0x00000001
T0208 001:182.705 JLINK_HasError()
T0208 001:182.728 JLINK_WriteReg(R0, 0x00006000)
T0208 001:182.745 - 0.021ms returns 0
T0208 001:182.760 JLINK_WriteReg(R1, 0x00001000)
T0208 001:182.776 - 0.022ms returns 0
T0208 001:182.792 JLINK_WriteReg(R2, 0x000000FF)
T0208 001:182.808 - 0.020ms returns 0
T0208 001:182.823 JLINK_WriteReg(R3, 0x00000000)
T0208 001:182.840 - 0.025ms returns 0
T0208 001:182.857 JLINK_WriteReg(R4, 0x00000000)
T0208 001:182.868 - 0.016ms returns 0
T0208 001:182.882 JLINK_WriteReg(R5, 0x00000000)
T0208 001:182.893 - 0.016ms returns 0
T0208 001:182.919 JLINK_WriteReg(R6, 0x00000000)
T0208 001:182.939 - 0.025ms returns 0
T0208 001:182.956 JLINK_WriteReg(R7, 0x00000000)
T0208 001:182.973 - 0.022ms returns 0
T0208 001:182.992 JLINK_WriteReg(R8, 0x00000000)
T0208 001:183.006 - 0.020ms returns 0
T0208 001:183.021 JLINK_WriteReg(R9, 0x20000438)
T0208 001:183.033 - 0.016ms returns 0
T0208 001:183.047 JLINK_WriteReg(R10, 0x00000000)
T0208 001:183.059 - 0.016ms returns 0
T0208 001:183.074 JLINK_WriteReg(R11, 0x00000000)
T0208 001:183.085 - 0.016ms returns 0
T0208 001:183.100 JLINK_WriteReg(R12, 0x00000000)
T0208 001:183.117 - 0.025ms returns 0
T0208 001:183.136 JLINK_WriteReg(R13 (SP), 0x20001000)
T0208 001:183.149 - 0.017ms returns 0
T0208 001:183.164 JLINK_WriteReg(R14, 0x20000001)
T0208 001:183.176 - 0.017ms returns 0
T0208 001:183.191 JLINK_WriteReg(R15 (PC), 0x200000CA)
T0208 001:183.202 - 0.016ms returns 0
T0208 001:183.216 JLINK_WriteReg(XPSR, 0x01000000)
T0208 001:183.227 - 0.016ms returns 0
T0208 001:183.242 JLINK_WriteReg(MSP, 0x20001000)
T0208 001:183.253 - 0.016ms returns 0
T0208 001:183.294 JLINK_WriteReg(PSP, 0x20001000)
T0208 001:183.306 - 0.017ms returns 0
T0208 001:183.320 JLINK_WriteReg(CFBP, 0x00000000)
T0208 001:183.334 - 0.018ms returns 0
T0208 001:183.348 JLINK_SetBPEx(Addr = 0x20000000, Type = 0xFFFFFFF2)
T0208 001:183.362 - 0.019ms returns 0x0000000F
T0208 001:183.377 JLINK_Go()
T0208 001:183.401   CPU_ReadMem(4 bytes @ 0xE0001000)
T0208 001:188.799 - 5.445ms
T0208 001:188.842 JLINK_IsHalted()
T0208 001:189.347 - 0.517ms returns FALSE
T0208 001:189.372 JLINK_HasError()
T0208 001:193.586 JLINK_IsHalted()
T0208 001:194.178 - 0.606ms returns FALSE
T0208 001:194.204 JLINK_HasError()
T0208 001:195.572 JLINK_IsHalted()
T0208 001:196.113 - 0.552ms returns FALSE
T0208 001:196.149 JLINK_HasError()
T0208 001:197.528 JLINK_IsHalted()
T0208 001:202.712   CPU_ReadMem(2 bytes @ 0x20000000)
T0208 001:203.235 - 5.719ms returns TRUE
T0208 001:203.260 JLINK_ReadReg(R15 (PC))
T0208 001:203.298 - 0.073ms returns 0x20000000
T0208 001:203.350 JLINK_ClrBPEx(BPHandle = 0x0000000F)
T0208 001:203.374 - 0.034ms returns 0x00
T0208 001:203.394 JLINK_ReadReg(R0)
T0208 001:203.413 - 0.026ms returns 0x00000000
T0208 001:204.437 JLINK_HasError()
T0208 001:204.458 JLINK_WriteReg(R0, 0x00007000)
T0208 001:204.469 - 0.017ms returns 0
T0208 001:204.482 JLINK_WriteReg(R1, 0x00001000)
T0208 001:204.503 - 0.024ms returns 0
T0208 001:204.512 JLINK_WriteReg(R2, 0x000000FF)
